<Qucs Dataset 0.0.15>
<indep x 10>
  +5.00000000000e+00
  +1.00000000000e+01
  +1.50000000000e+01
  +2.00000000000e+01
  +2.50000000000e+01
  +3.00000000000e+01
  +3.50000000000e+01
  +4.00000000000e+01
  +4.50000000000e+01
  +5.00000000000e+01
</indep>
<dep V1.I x>
  -1.31538461538e+00
  -9.50000000000e-01
  -7.43478260870e-01
  -6.10714285714e-01
  -5.18181818182e-01
  -4.50000000000e-01
  -3.97674418605e-01
  -3.56250000000e-01
  -3.22641509434e-01
  -2.94827586207e-01
</dep>
<dep izeja.V x>
  +6.57692307692e+00
  +9.50000000000e+00
  +1.11521739130e+01
  +1.22142857143e+01
  +1.29545454545e+01
  +1.35000000000e+01
  +1.39186046512e+01
  +1.42500000000e+01
  +1.45188679245e+01
  +1.47413793103e+01
</dep>
<dep _net0.V x>
  +1.71000000000e+01
  +1.71000000000e+01
  +1.71000000000e+01
  +1.71000000000e+01
  +1.71000000000e+01
  +1.71000000000e+01
  +1.71000000000e+01
  +1.71000000000e+01
  +1.71000000000e+01
  +1.71000000000e+01
</dep>
